TC3EC 000:006.230   SEGGER J-Link V8.64a Log File
TC3EC 000:006.390   DLL Compiled: Sep  2 2025 10:59:34
TC3EC 000:006.394   Logging started @ 2026-06-04 02:29
TC3EC 000:006.466   Process: D:\Keil_v5\UV4\UV4.exe
TC3EC 000:006.478 - 6.472ms 
TC3EC 000:006.485 JLINK_SetWarnOutHandler(...)
TC3EC 000:006.489 - 0.005ms 
TC3EC 000:006.494 JLINK_OpenEx(...)
TC3EC 000:009.416   Firmware: J-Link V9 compiled May  7 2021 16:26:12
TC3EC 000:010.077   Firmware: J-Link V9 compiled May  7 2021 16:26:12
TC3EC 000:010.218   Decompressing FW timestamp took 120 us
TC3EC 000:015.921   Hardware: V9.20
TC3EC 000:015.937   S/N: 4294967295
TC3EC 000:015.942   OEM: SEGGER
TC3EC 000:015.947   Feature(s): RDI, GDB, FlashDL, FlashBP, JFlash
TC3EC 000:016.556   Bootloader: (FW returned invalid version)
TC3EC 000:017.202   TELNET listener socket opened on port 19021
TC3EC 000:017.447   WEBSRV WEBSRV_Init(): Starting webserver thread(s)
TC3EC 000:017.642   WEBSRV Webserver running on local port 19080
TC3EC 000:017.909   Looking for J-Link GUI Server exe at: D:\Keil_v5\ARM\Segger\JLinkGUIServer.exe
TC3EC 000:018.105   Looking for J-Link GUI Server exe at: C:\Program Files\SEGGER\JLink_V864a\JLinkGUIServer.exe
TC3EC 000:018.173   Forking J-Link GUI Server: C:\Program Files\SEGGER\JLink_V864a\JLinkGUIServer.exe
TC3EC 000:086.826   J-Link GUI Server info: "J-Link GUI server V8.64a "
TC3EC 000:097.650 - 91.145ms returns "O.K."
TC3EC 000:097.683 JLINK_GetEmuCaps()
TC3EC 000:097.692 - 0.006ms returns 0xB9FF7BBF
TC3EC 000:097.700 JLINK_TIF_GetAvailable(...)
TC3EC 000:097.909 - 0.208ms 
TC3EC 000:097.922 JLINK_SetErrorOutHandler(...)
TC3EC 000:097.927 - 0.005ms 
TC3EC 000:097.950 JLINK_ExecCommand("ProjectFile = "E:\Project\STM_PROJECT\w5500_project\APP\MDK-ARM\JLinkSettings.ini"", ...). 
TC3EC 000:109.853   Ref file found at: D:\Keil_v5\ARM\Segger\JLinkDevices.ref
TC3EC 000:109.995   REF file references invalid XML file: C:\Program Files\SEGGER\JLink_V864a\JLinkDevices.xml
TC3EC 000:111.358 - 13.404ms returns 0x00
TC3EC 000:116.115 JLINK_ExecCommand("Device = STM32F405RGTx", ...). 
TC3EC 000:119.705   Device "STM32F405RG" selected.
TC3EC 000:120.282 - 4.138ms returns 0x00
TC3EC 000:120.296 JLINK_ExecCommand("DisableConnectionTimeout", ...). 
TC3EC 000:120.307   ERROR: Unknown command
TC3EC 000:120.312 - 0.011ms returns 0x01
TC3EC 000:120.317 JLINK_GetHardwareVersion()
TC3EC 000:120.322 - 0.004ms returns 92000
TC3EC 000:120.327 JLINK_GetDLLVersion()
TC3EC 000:120.330 - 0.003ms returns 86401
TC3EC 000:120.335 JLINK_GetOEMString(...)
TC3EC 000:120.340 JLINK_GetFirmwareString(...)
TC3EC 000:120.343 - 0.003ms 
TC3EC 000:128.994 JLINK_GetDLLVersion()
TC3EC 000:129.013 - 0.019ms returns 86401
TC3EC 000:129.018 JLINK_GetCompileDateTime()
TC3EC 000:129.021 - 0.003ms 
TC3EC 000:131.407 JLINK_GetFirmwareString(...)
TC3EC 000:131.435 - 0.029ms 
TC3EC 000:134.390 JLINK_GetHardwareVersion()
TC3EC 000:134.409 - 0.018ms returns 92000
TC3EC 000:136.991 JLINK_GetSN()
TC3EC 000:137.009 - 0.017ms returns -1
TC3EC 000:137.014 JLINK_GetOEMString(...)
TC3EC 000:142.105 JLINK_TIF_Select(JLINKARM_TIF_SWD)
TC3EC 000:142.683 - 0.581ms returns 0x00
TC3EC 000:142.696 JLINK_HasError()
TC3EC 000:142.707 JLINK_SetSpeed(5000)
TC3EC 000:142.770 - 0.064ms 
TC3EC 000:142.777 JLINK_GetId()
TC3EC 000:145.236   InitTarget() start
TC3EC 000:145.248    J-Link Script File: Executing InitTarget()
TC3EC 000:147.824   SWD selected. Executing JTAG -> SWD switching sequence.
TC3EC 000:151.898   DAP initialized successfully.
TC3EC 000:159.047   InitTarget() end - Took 10.2ms
TC3EC 000:162.064   Found SW-DP with ID 0x2BA01477
TC3EC 000:168.312   DPIDR: 0x2BA01477
TC3EC 000:170.580   CoreSight SoC-400 or earlier
TC3EC 000:173.629   Scanning AP map to find all available APs
TC3EC 000:176.403   AP[1]: Stopped AP scan as end of AP map has been reached
TC3EC 000:178.735   AP[0]: AHB-AP (IDR: 0x24770011, ADDR: 0x00000000)
TC3EC 000:181.373   Iterating through AP map to find AHB-AP to use
TC3EC 000:184.744   AP[0]: Core found
TC3EC 000:188.202   AP[0]: AHB-AP ROM base: 0xE00FF000
TC3EC 000:191.045   CPUID register: 0x410FC241. Implementer code: 0x41 (ARM)
TC3EC 000:193.573   Found Cortex-M4 r0p1, Little endian.
TC3EC 000:193.861   -- Max. mem block: 0x00010E60
TC3EC 000:194.181   CPU_ReadMem(4 bytes @ 0xE000EDF0)
TC3EC 000:194.378   CPU_ReadMem(4 bytes @ 0xE0002000)
TC3EC 000:196.990   FPUnit: 6 code (BP) slots and 2 literal slots
TC3EC 000:197.006   CPU_ReadMem(4 bytes @ 0xE000EDFC)
TC3EC 000:197.239   CPU_WriteMem(4 bytes @ 0xE000EDFC)
TC3EC 000:197.491   CPU_ReadMem(4 bytes @ 0xE0001000)
TC3EC 000:197.706   CPU_WriteMem(4 bytes @ 0xE0001000)
TC3EC 000:197.927   CPU_ReadMem(4 bytes @ 0xE000ED88)
TC3EC 000:198.117   CPU_WriteMem(4 bytes @ 0xE000ED88)
TC3EC 000:198.339   CPU_ReadMem(4 bytes @ 0xE000ED88)
TC3EC 000:198.540   CPU_WriteMem(4 bytes @ 0xE000ED88)
TC3EC 000:201.452   CoreSight components:
TC3EC 000:204.123   ROMTbl[0] @ E00FF000
TC3EC 000:204.153   CPU_ReadMem(64 bytes @ 0xE00FF000)
TC3EC 000:204.679   CPU_ReadMem(32 bytes @ 0xE000EFE0)
TC3EC 000:207.558   [0][0]: E000E000 CID B105E00D PID 000BB00C SCS-M7
TC3EC 000:207.586   CPU_ReadMem(32 bytes @ 0xE0001FE0)
TC3EC 000:210.335   [0][1]: E0001000 CID B105E00D PID 003BB002 DWT
TC3EC 000:210.353   CPU_ReadMem(32 bytes @ 0xE0002FE0)
TC3EC 000:212.998   [0][2]: E0002000 CID B105E00D PID 002BB003 FPB
TC3EC 000:213.014   CPU_ReadMem(32 bytes @ 0xE0000FE0)
TC3EC 000:219.282   [0][3]: E0000000 CID B105E00D PID 003BB001 ITM
TC3EC 000:219.309   CPU_ReadMem(32 bytes @ 0xE0040FE0)
TC3EC 000:222.430   [0][4]: E0040000 CID B105900D PID 000BB9A1 TPIU
TC3EC 000:222.450   CPU_ReadMem(32 bytes @ 0xE0041FE0)
TC3EC 000:225.222   [0][5]: E0041000 CID B105900D PID 000BB925 ETM
TC3EC 000:225.519 - 82.741ms returns 0x2BA01477
TC3EC 000:225.532 JLINK_GetDLLVersion()
TC3EC 000:225.551 - 0.003ms returns 86401
TC3EC 000:225.556 JLINK_CORE_GetFound()
TC3EC 000:225.560 - 0.003ms returns 0xE0000FF
TC3EC 000:225.566 JLINK_GetDebugInfo(0x100 = JLINKARM_ROM_TABLE_ADDR_INDEX)
TC3EC 000:225.570   Value=0xE00FF000
TC3EC 000:225.575 - 0.009ms returns 0
TC3EC 000:227.938 JLINK_GetDebugInfo(0x100 = JLINKARM_ROM_TABLE_ADDR_INDEX)
TC3EC 000:227.948   Value=0xE00FF000
TC3EC 000:227.953 - 0.016ms returns 0
TC3EC 000:227.957 JLINK_GetDebugInfo(0x101 = JLINKARM_DEBUG_INFO_ETM_ADDR_INDEX)
TC3EC 000:227.961   Value=0xE0041000
TC3EC 000:227.965 - 0.008ms returns 0
TC3EC 000:227.970 JLINK_ReadMemEx(0xE0041FD0, 0x20 Bytes, Flags = 0x02000004)
TC3EC 000:227.988   CPU_ReadMem(32 bytes @ 0xE0041FD0)
TC3EC 000:228.336   Data:  04 00 00 00 00 00 00 00 00 00 00 00 00 00 00 00 ...
TC3EC 000:228.345 - 0.375ms returns 32 (0x20)
TC3EC 000:228.351 JLINK_GetDebugInfo(0x102 = JLINKARM_DEBUG_INFO_MTB_ADDR_INDEX)
TC3EC 000:228.354   Value=0x00000000
TC3EC 000:228.359 - 0.008ms returns 0
TC3EC 000:228.363 JLINK_GetDebugInfo(0x103 = JLINKARM_DEBUG_INFO_TPIU_ADDR_INDEX)
TC3EC 000:228.367   Value=0xE0040000
TC3EC 000:228.371 - 0.008ms returns 0
TC3EC 000:228.375 JLINK_GetDebugInfo(0x104 = JLINKARM_DEBUG_INFO_ITM_ADDR_INDEX)
TC3EC 000:228.378   Value=0xE0000000
TC3EC 000:228.383 - 0.007ms returns 0
TC3EC 000:228.387 JLINK_GetDebugInfo(0x105 = JLINKARM_DEBUG_INFO_DWT_ADDR_INDEX)
TC3EC 000:228.390   Value=0xE0001000
TC3EC 000:228.395 - 0.007ms returns 0
TC3EC 000:228.399 JLINK_GetDebugInfo(0x106 = JLINKARM_DEBUG_INFO_FPB_ADDR_INDEX)
TC3EC 000:228.402   Value=0xE0002000
TC3EC 000:228.406 - 0.007ms returns 0
TC3EC 000:228.410 JLINK_GetDebugInfo(0x107 = JLINKARM_DEBUG_INFO_NVIC_ADDR_INDEX)
TC3EC 000:228.413   Value=0xE000E000
TC3EC 000:228.418 - 0.007ms returns 0
TC3EC 000:228.422 JLINK_GetDebugInfo(0x10C = JLINKARM_DEBUG_INFO_DBG_ADDR_INDEX)
TC3EC 000:228.425   Value=0xE000EDF0
TC3EC 000:228.429 - 0.007ms returns 0
TC3EC 000:228.433 JLINK_GetDebugInfo(0x01 = Unknown)
TC3EC 000:228.437   Value=0x00000001
TC3EC 000:228.441 - 0.007ms returns 0
TC3EC 000:228.445 JLINK_ReadMemU32(0xE000ED00, 0x1 Items)
TC3EC 000:228.453   CPU_ReadMem(4 bytes @ 0xE000ED00)
TC3EC 000:228.653   Data:  41 C2 0F 41
TC3EC 000:228.663   Debug reg: CPUID
TC3EC 000:228.673 - 0.227ms returns 1 (0x1)
TC3EC 000:228.695 JLINK_GetDebugInfo(0x10F = JLINKARM_DEBUG_INFO_HAS_CORTEX_M_SECURITY_EXT_INDEX)
TC3EC 000:228.699   Value=0x00000000
TC3EC 000:228.703 - 0.008ms returns 0
TC3EC 000:228.708 JLINK_HasError()
TC3EC 000:228.726 JLINK_SetResetType(JLINKARM_CM3_RESET_TYPE_NORMAL)
TC3EC 000:228.730 - 0.003ms returns JLINKARM_CM3_RESET_TYPE_NORMAL
TC3EC 000:228.750 JLINK_Reset()
TC3EC 000:228.757   JLINK_GetResetTypeDesc
TC3EC 000:228.760   - 0.003ms 
TC3EC 000:231.805   Reset type: NORMAL (https://wiki.segger.com/J-Link_Reset_Strategies)
TC3EC 000:231.839   CPU is running
TC3EC 000:231.855   CPU_WriteMem(4 bytes @ 0xE000EDF0)
TC3EC 000:232.227   CPU is running
TC3EC 000:232.246   CPU_WriteMem(4 bytes @ 0xE000EDFC)
TC3EC 000:236.727   Reset: Halt core after reset via DEMCR.VC_CORERESET.
TC3EC 000:240.152   Reset: Reset device via AIRCR.SYSRESETREQ.
TC3EC 000:240.175   CPU is running
TC3EC 000:240.185   CPU_WriteMem(4 bytes @ 0xE000ED0C)
TC3EC 000:293.691   CPU_ReadMem(4 bytes @ 0xE000EDF0)
TC3EC 000:294.007   CPU_ReadMem(4 bytes @ 0xE000EDF0)
TC3EC 000:296.169   CPU_WriteMem(4 bytes @ 0xE000EDFC)
TC3EC 000:301.914   CPU_ReadMem(4 bytes @ 0xE000EDF0)
TC3EC 000:304.117   CPU_WriteMem(4 bytes @ 0xE0002000)
TC3EC 000:304.421   CPU_ReadMem(4 bytes @ 0xE000EDFC)
TC3EC 000:304.728   CPU_ReadMem(4 bytes @ 0xE0001000)
TC3EC 000:304.958 - 76.208ms 
TC3EC 000:304.973 JLINK_Halt()
TC3EC 000:304.978 - 0.004ms returns 0x00
TC3EC 000:304.985 JLINK_ReadMemU32(0xE000EDF0, 0x1 Items)
TC3EC 000:304.997   CPU_ReadMem(4 bytes @ 0xE000EDF0)
TC3EC 000:305.236   Data:  03 00 03 00
TC3EC 000:305.245   Debug reg: DHCSR
TC3EC 000:305.250 - 0.265ms returns 1 (0x1)
TC3EC 000:305.262 JLINK_WriteU32(0xE000EDF0, 0xA05F0003)
TC3EC 000:305.268   Debug reg: DHCSR
TC3EC 000:305.453   CPU_WriteMem(4 bytes @ 0xE000EDF0)
TC3EC 000:305.792 - 0.533ms returns 0 (0x00000000)
TC3EC 000:305.803 JLINK_WriteU32(0xE000EDFC, 0x01000000)
TC3EC 000:305.838   Debug reg: DEMCR
TC3EC 000:305.851   CPU_WriteMem(4 bytes @ 0xE000EDFC)
TC3EC 000:306.148 - 0.344ms returns 0 (0x00000000)
TC3EC 000:318.999 JLINK_GetHWStatus(...)
TC3EC 000:319.170 - 0.170ms returns 0
TC3EC 000:327.515 JLINK_GetNumBPUnits(Type = 0xFFFFFF00)
TC3EC 000:327.536 - 0.021ms returns 0x06
TC3EC 000:327.541 JLINK_GetNumBPUnits(Type = 0xF0)
TC3EC 000:327.545 - 0.003ms returns 0x2000
TC3EC 000:327.549 JLINK_GetNumWPUnits()
TC3EC 000:327.552 - 0.003ms returns 4
TC3EC 000:336.354 JLINK_GetSpeed()
TC3EC 000:336.374 - 0.019ms returns 4000
TC3EC 000:342.126 JLINK_ReadMemU32(0xE000E004, 0x1 Items)
TC3EC 000:342.154   CPU_ReadMem(4 bytes @ 0xE000E004)
TC3EC 000:342.424   Data:  02 00 00 00
TC3EC 000:342.434 - 0.308ms returns 1 (0x1)
TC3EC 000:342.441 JLINK_ReadMemU32(0xE000E004, 0x1 Items)
TC3EC 000:342.448   CPU_ReadMem(4 bytes @ 0xE000E004)
TC3EC 000:342.693   Data:  02 00 00 00
TC3EC 000:342.702 - 0.261ms returns 1 (0x1)
TC3EC 000:342.708 JLINK_WriteMemEx(0xE0001000, 0x0000001C Bytes, Flags = 0x02000004)
TC3EC 000:342.712   Data:  01 00 00 00 00 00 00 00 00 00 00 00 00 00 00 00 ...
TC3EC 000:342.723   CPU_WriteMem(28 bytes @ 0xE0001000)
TC3EC 000:343.058 - 0.350ms returns 0x1C
TC3EC 000:343.070 JLINK_Halt()
TC3EC 000:343.074 - 0.003ms returns 0x00
TC3EC 000:343.079 JLINK_IsHalted()
TC3EC 000:343.083 - 0.004ms returns TRUE
TC3EC 000:345.862 JLINK_WriteMem(0x20000000, 0x180 Bytes, ...)
TC3EC 000:345.873   Data:  00 BE 0A E0 0D 78 2D 06 68 40 08 24 40 00 00 D3 ...
TC3EC 000:346.048   CPU_WriteMem(384 bytes @ 0x20000000)
TC3EC 000:347.630 - 1.768ms returns 0x180
TC3EC 000:347.670 JLINK_HasError()
TC3EC 000:347.677 JLINK_WriteReg(R0, 0x08000000)
TC3EC 000:347.683 - 0.007ms returns 0
TC3EC 000:347.688 JLINK_WriteReg(R1, 0x007A1200)
TC3EC 000:347.691 - 0.003ms returns 0
TC3EC 000:347.695 JLINK_WriteReg(R2, 0x00000001)
TC3EC 000:347.699 - 0.003ms returns 0
TC3EC 000:347.703 JLINK_WriteReg(R3, 0x00000000)
TC3EC 000:347.707 - 0.003ms returns 0
TC3EC 000:347.714 JLINK_WriteReg(R4, 0x00000000)
TC3EC 000:347.721 - 0.007ms returns 0
TC3EC 000:347.727 JLINK_WriteReg(R5, 0x00000000)
TC3EC 000:347.730 - 0.003ms returns 0
TC3EC 000:347.734 JLINK_WriteReg(R6, 0x00000000)
TC3EC 000:347.738 - 0.003ms returns 0
TC3EC 000:347.742 JLINK_WriteReg(R7, 0x00000000)
TC3EC 000:347.745 - 0.003ms returns 0
TC3EC 000:347.755 JLINK_WriteReg(R8, 0x00000000)
TC3EC 000:347.759 - 0.009ms returns 0
TC3EC 000:347.763 JLINK_WriteReg(R9, 0x2000017C)
TC3EC 000:347.766 - 0.003ms returns 0
TC3EC 000:347.771 JLINK_WriteReg(R10, 0x00000000)
TC3EC 000:347.774 - 0.003ms returns 0
TC3EC 000:347.778 JLINK_WriteReg(R11, 0x00000000)
TC3EC 000:347.782 - 0.003ms returns 0
TC3EC 000:347.786 JLINK_WriteReg(R12, 0x00000000)
TC3EC 000:347.789 - 0.003ms returns 0
TC3EC 000:347.793 JLINK_WriteReg(R13 (SP), 0x20001000)
TC3EC 000:347.798 - 0.004ms returns 0
TC3EC 000:347.801 JLINK_WriteReg(R14, 0x20000001)
TC3EC 000:347.805 - 0.003ms returns 0
TC3EC 000:347.809 JLINK_WriteReg(R15 (PC), 0x20000054)
TC3EC 000:347.813 - 0.003ms returns 0
TC3EC 000:347.817 JLINK_WriteReg(XPSR, 0x01000000)
TC3EC 000:347.820 - 0.003ms returns 0
TC3EC 000:347.824 JLINK_WriteReg(MSP, 0x20001000)
TC3EC 000:347.828 - 0.003ms returns 0
TC3EC 000:347.832 JLINK_WriteReg(PSP, 0x20001000)
TC3EC 000:347.835 - 0.003ms returns 0
TC3EC 000:347.839 JLINK_WriteReg(CFBP, 0x00000000)
TC3EC 000:347.843 - 0.003ms returns 0
TC3EC 000:347.848 JLINK_SetBPEx(Addr = 0x20000000, Type = 0xFFFFFFF2)
TC3EC 000:347.856   CPU_ReadMem(2 bytes @ 0x20000000)
TC3EC 000:348.120 - 0.272ms returns 0x00000001
TC3EC 000:348.130 JLINK_Go()
TC3EC 000:348.139   CPU_WriteMem(2 bytes @ 0x20000000)
TC3EC 000:348.395   CPU_ReadMem(4 bytes @ 0xE0001000)
TC3EC 000:348.673   CPU_WriteMem(4 bytes @ 0xE0002008)
TC3EC 000:348.687   CPU_WriteMem(4 bytes @ 0xE000200C)
TC3EC 000:348.692   CPU_WriteMem(4 bytes @ 0xE0002010)
TC3EC 000:348.697   CPU_WriteMem(4 bytes @ 0xE0002014)
TC3EC 000:348.702   CPU_WriteMem(4 bytes @ 0xE0002018)
TC3EC 000:348.711   CPU_WriteMem(4 bytes @ 0xE000201C)
TC3EC 000:349.698   CPU_WriteMem(4 bytes @ 0xE0001004)
TC3EC 000:354.946   Memory map 'after startup completion point' is active
TC3EC 000:354.967 - 6.836ms 
TC3EC 000:354.975 JLINK_IsHalted()
TC3EC 000:356.762   CPU_ReadMem(2 bytes @ 0x20000000)
TC3EC 000:356.997 - 2.020ms returns TRUE
TC3EC 000:357.009 JLINK_ReadReg(R15 (PC))
TC3EC 000:357.015 - 0.006ms returns 0x20000000
TC3EC 000:357.020 JLINK_ClrBPEx(BPHandle = 0x00000001)
TC3EC 000:357.024 - 0.004ms returns 0x00
TC3EC 000:357.028 JLINK_ReadReg(R0)
TC3EC 000:357.032 - 0.003ms returns 0x00000000
TC3EC 000:357.348 JLINK_HasError()
TC3EC 000:357.358 JLINK_WriteReg(R0, 0x0800C000)
TC3EC 000:357.364 - 0.005ms returns 0
TC3EC 000:357.368 JLINK_WriteReg(R1, 0x00004000)
TC3EC 000:357.371 - 0.003ms returns 0
TC3EC 000:357.375 JLINK_WriteReg(R2, 0x000000FF)
TC3EC 000:357.379 - 0.003ms returns 0
TC3EC 000:357.383 JLINK_WriteReg(R3, 0x00000000)
TC3EC 000:357.386 - 0.003ms returns 0
TC3EC 000:357.390 JLINK_WriteReg(R4, 0x00000000)
TC3EC 000:357.394 - 0.003ms returns 0
TC3EC 000:357.398 JLINK_WriteReg(R5, 0x00000000)
TC3EC 000:357.401 - 0.003ms returns 0
TC3EC 000:357.405 JLINK_WriteReg(R6, 0x00000000)
TC3EC 000:357.409 - 0.003ms returns 0
TC3EC 000:357.413 JLINK_WriteReg(R7, 0x00000000)
TC3EC 000:357.416 - 0.003ms returns 0
TC3EC 000:357.420 JLINK_WriteReg(R8, 0x00000000)
TC3EC 000:357.424 - 0.003ms returns 0
TC3EC 000:357.428 JLINK_WriteReg(R9, 0x2000017C)
TC3EC 000:357.432 - 0.003ms returns 0
TC3EC 000:357.436 JLINK_WriteReg(R10, 0x00000000)
TC3EC 000:357.439 - 0.003ms returns 0
TC3EC 000:357.443 JLINK_WriteReg(R11, 0x00000000)
TC3EC 000:357.447 - 0.003ms returns 0
TC3EC 000:357.451 JLINK_WriteReg(R12, 0x00000000)
TC3EC 000:357.454 - 0.003ms returns 0
TC3EC 000:357.458 JLINK_WriteReg(R13 (SP), 0x20001000)
TC3EC 000:357.462 - 0.004ms returns 0
TC3EC 000:357.466 JLINK_WriteReg(R14, 0x20000001)
TC3EC 000:357.470 - 0.003ms returns 0
TC3EC 000:357.474 JLINK_WriteReg(R15 (PC), 0x20000020)
TC3EC 000:357.478 - 0.003ms returns 0
TC3EC 000:357.519 JLINK_WriteReg(XPSR, 0x01000000)
TC3EC 000:357.526 - 0.007ms returns 0
TC3EC 000:357.530 JLINK_WriteReg(MSP, 0x20001000)
TC3EC 000:357.534 - 0.003ms returns 0
TC3EC 000:357.538 JLINK_WriteReg(PSP, 0x20001000)
TC3EC 000:357.541 - 0.003ms returns 0
TC3EC 000:357.545 JLINK_WriteReg(CFBP, 0x00000000)
TC3EC 000:357.549 - 0.003ms returns 0
TC3EC 000:357.553 JLINK_SetBPEx(Addr = 0x20000000, Type = 0xFFFFFFF2)
TC3EC 000:357.558 - 0.005ms returns 0x00000002
TC3EC 000:357.562 JLINK_Go()
TC3EC 000:357.575   CPU_ReadMem(4 bytes @ 0xE0001000)
TC3EC 000:359.485 - 1.922ms 
TC3EC 000:359.501 JLINK_IsHalted()
TC3EC 000:359.707 - 0.206ms returns FALSE
TC3EC 000:359.715 JLINK_HasError()
TC3EC 000:376.654 JLINK_IsHalted()
TC3EC 000:378.602   CPU_ReadMem(2 bytes @ 0x20000000)
TC3EC 000:378.855 - 2.201ms returns TRUE
TC3EC 000:378.866 JLINK_ReadReg(R15 (PC))
TC3EC 000:378.872 - 0.006ms returns 0x20000000
TC3EC 000:378.877 JLINK_ClrBPEx(BPHandle = 0x00000002)
TC3EC 000:378.881 - 0.004ms returns 0x00
TC3EC 000:378.885 JLINK_ReadReg(R0)
TC3EC 000:378.889 - 0.003ms returns 0x00000000
TC3EC 000:379.399 JLINK_HasError()
TC3EC 000:379.408 JLINK_WriteReg(R0, 0x08010000)
TC3EC 000:379.413 - 0.004ms returns 0
TC3EC 000:379.417 JLINK_WriteReg(R1, 0x00010000)
TC3EC 000:379.421 - 0.003ms returns 0
TC3EC 000:379.425 JLINK_WriteReg(R2, 0x000000FF)
TC3EC 000:379.428 - 0.003ms returns 0
TC3EC 000:379.432 JLINK_WriteReg(R3, 0x00000000)
TC3EC 000:379.436 - 0.003ms returns 0
TC3EC 000:379.440 JLINK_WriteReg(R4, 0x00000000)
TC3EC 000:379.443 - 0.003ms returns 0
TC3EC 000:379.447 JLINK_WriteReg(R5, 0x00000000)
TC3EC 000:379.451 - 0.003ms returns 0
TC3EC 000:379.455 JLINK_WriteReg(R6, 0x00000000)
TC3EC 000:379.458 - 0.003ms returns 0
TC3EC 000:379.462 JLINK_WriteReg(R7, 0x00000000)
TC3EC 000:379.465 - 0.003ms returns 0
TC3EC 000:379.469 JLINK_WriteReg(R8, 0x00000000)
TC3EC 000:379.473 - 0.003ms returns 0
TC3EC 000:379.477 JLINK_WriteReg(R9, 0x2000017C)
TC3EC 000:379.480 - 0.003ms returns 0
TC3EC 000:379.484 JLINK_WriteReg(R10, 0x00000000)
TC3EC 000:379.488 - 0.003ms returns 0
TC3EC 000:379.492 JLINK_WriteReg(R11, 0x00000000)
TC3EC 000:379.495 - 0.003ms returns 0
TC3EC 000:379.499 JLINK_WriteReg(R12, 0x00000000)
TC3EC 000:379.503 - 0.003ms returns 0
TC3EC 000:379.507 JLINK_WriteReg(R13 (SP), 0x20001000)
TC3EC 000:379.511 - 0.004ms returns 0
TC3EC 000:379.515 JLINK_WriteReg(R14, 0x20000001)
TC3EC 000:379.518 - 0.003ms returns 0
TC3EC 000:379.522 JLINK_WriteReg(R15 (PC), 0x20000020)
TC3EC 000:379.526 - 0.003ms returns 0
TC3EC 000:379.530 JLINK_WriteReg(XPSR, 0x01000000)
TC3EC 000:379.534 - 0.003ms returns 0
TC3EC 000:379.538 JLINK_WriteReg(MSP, 0x20001000)
TC3EC 000:379.541 - 0.003ms returns 0
TC3EC 000:379.545 JLINK_WriteReg(PSP, 0x20001000)
TC3EC 000:379.549 - 0.003ms returns 0
TC3EC 000:379.553 JLINK_WriteReg(CFBP, 0x00000000)
TC3EC 000:379.556 - 0.003ms returns 0
TC3EC 000:379.561 JLINK_SetBPEx(Addr = 0x20000000, Type = 0xFFFFFFF2)
TC3EC 000:379.565 - 0.004ms returns 0x00000003
TC3EC 000:379.569 JLINK_Go()
TC3EC 000:379.579   CPU_ReadMem(4 bytes @ 0xE0001000)
TC3EC 000:381.583 - 2.013ms 
TC3EC 000:381.603 JLINK_IsHalted()
TC3EC 000:381.814 - 0.211ms returns FALSE
TC3EC 000:381.830 JLINK_HasError()
TC3EC 000:383.692 JLINK_IsHalted()
TC3EC 000:384.182 - 0.489ms returns FALSE
TC3EC 000:384.241 JLINK_HasError()
TC3EC 000:385.653 JLINK_IsHalted()
TC3EC 000:385.932 - 0.278ms returns FALSE
TC3EC 000:385.942 JLINK_HasError()
TC3EC 000:387.635 JLINK_IsHalted()
TC3EC 000:387.880 - 0.245ms returns FALSE
TC3EC 000:387.889 JLINK_HasError()
TC3EC 000:389.631 JLINK_IsHalted()
TC3EC 000:389.876 - 0.244ms returns FALSE
TC3EC 000:389.885 JLINK_HasError()
TC3EC 000:391.622 JLINK_IsHalted()
TC3EC 000:391.835 - 0.213ms returns FALSE
TC3EC 000:391.844 JLINK_HasError()
TC3EC 000:393.621 JLINK_IsHalted()
TC3EC 000:393.849 - 0.227ms returns FALSE
TC3EC 000:393.858 JLINK_HasError()
TC3EC 000:395.614 JLINK_IsHalted()
TC3EC 000:395.868 - 0.253ms returns FALSE
TC3EC 000:395.876 JLINK_HasError()
TC3EC 000:397.596 JLINK_IsHalted()
TC3EC 000:397.863 - 0.267ms returns FALSE
TC3EC 000:397.873 JLINK_HasError()
TC3EC 000:399.610 JLINK_IsHalted()
TC3EC 000:399.892 - 0.279ms returns FALSE
TC3EC 000:399.909 JLINK_HasError()
TC3EC 000:401.578 JLINK_IsHalted()
TC3EC 000:401.779 - 0.200ms returns FALSE
TC3EC 000:401.791 JLINK_HasError()
TC3EC 000:403.566 JLINK_IsHalted()
TC3EC 000:403.776 - 0.209ms returns FALSE
TC3EC 000:403.783 JLINK_HasError()
TC3EC 000:405.561 JLINK_IsHalted()
TC3EC 000:405.810 - 0.249ms returns FALSE
TC3EC 000:405.820 JLINK_HasError()
TC3EC 000:407.581 JLINK_IsHalted()
TC3EC 000:407.800 - 0.217ms returns FALSE
TC3EC 000:407.805 JLINK_HasError()
TC3EC 000:409.549 JLINK_IsHalted()
TC3EC 000:409.829 - 0.279ms returns FALSE
TC3EC 000:409.838 JLINK_HasError()
TC3EC 000:411.583 JLINK_IsHalted()
TC3EC 000:411.828 - 0.245ms returns FALSE
TC3EC 000:411.839 JLINK_HasError()
TC3EC 000:414.541 JLINK_IsHalted()
TC3EC 000:414.806 - 0.264ms returns FALSE
TC3EC 000:414.817 JLINK_HasError()
TC3EC 000:416.565 JLINK_IsHalted()
TC3EC 000:416.829 - 0.263ms returns FALSE
TC3EC 000:416.838 JLINK_HasError()
TC3EC 000:418.553 JLINK_IsHalted()
TC3EC 000:418.741 - 0.187ms returns FALSE
TC3EC 000:418.750 JLINK_HasError()
TC3EC 000:420.549 JLINK_IsHalted()
TC3EC 000:420.841 - 0.291ms returns FALSE
TC3EC 000:420.850 JLINK_HasError()
TC3EC 000:422.551 JLINK_IsHalted()
TC3EC 000:422.812 - 0.260ms returns FALSE
TC3EC 000:422.819 JLINK_HasError()
TC3EC 000:424.508 JLINK_IsHalted()
TC3EC 000:424.753 - 0.244ms returns FALSE
TC3EC 000:424.762 JLINK_HasError()
TC3EC 000:426.536 JLINK_IsHalted()
TC3EC 000:426.801 - 0.264ms returns FALSE
TC3EC 000:426.812 JLINK_HasError()
TC3EC 000:428.498 JLINK_IsHalted()
TC3EC 000:428.753 - 0.255ms returns FALSE
TC3EC 000:428.763 JLINK_HasError()
TC3EC 000:430.494 JLINK_IsHalted()
TC3EC 000:430.729 - 0.234ms returns FALSE
TC3EC 000:430.738 JLINK_HasError()
TC3EC 000:432.501 JLINK_IsHalted()
TC3EC 000:432.754 - 0.253ms returns FALSE
TC3EC 000:432.765 JLINK_HasError()
TC3EC 000:434.511 JLINK_IsHalted()
TC3EC 000:434.794 - 0.282ms returns FALSE
TC3EC 000:434.804 JLINK_HasError()
TC3EC 000:436.507 JLINK_IsHalted()
TC3EC 000:436.754 - 0.246ms returns FALSE
TC3EC 000:436.761 JLINK_HasError()
TC3EC 000:438.500 JLINK_IsHalted()
TC3EC 000:440.370   CPU_ReadMem(2 bytes @ 0x20000000)
TC3EC 000:440.693 - 2.193ms returns TRUE
TC3EC 000:440.703 JLINK_ReadReg(R15 (PC))
TC3EC 000:440.709 - 0.006ms returns 0x20000000
TC3EC 000:440.714 JLINK_ClrBPEx(BPHandle = 0x00000003)
TC3EC 000:440.718 - 0.004ms returns 0x00
TC3EC 000:440.723 JLINK_ReadReg(R0)
TC3EC 000:440.727 - 0.003ms returns 0x00000000
TC3EC 000:441.346 JLINK_HasError()
TC3EC 000:441.357 JLINK_WriteReg(R0, 0x08020000)
TC3EC 000:441.362 - 0.005ms returns 0
TC3EC 000:441.366 JLINK_WriteReg(R1, 0x00020000)
TC3EC 000:441.370 - 0.003ms returns 0
TC3EC 000:441.374 JLINK_WriteReg(R2, 0x000000FF)
TC3EC 000:441.378 - 0.003ms returns 0
TC3EC 000:441.382 JLINK_WriteReg(R3, 0x00000000)
TC3EC 000:441.385 - 0.003ms returns 0
TC3EC 000:441.389 JLINK_WriteReg(R4, 0x00000000)
TC3EC 000:441.393 - 0.003ms returns 0
TC3EC 000:441.397 JLINK_WriteReg(R5, 0x00000000)
TC3EC 000:441.401 - 0.003ms returns 0
TC3EC 000:441.405 JLINK_WriteReg(R6, 0x00000000)
TC3EC 000:441.408 - 0.003ms returns 0
TC3EC 000:441.412 JLINK_WriteReg(R7, 0x00000000)
TC3EC 000:441.416 - 0.003ms returns 0
TC3EC 000:441.420 JLINK_WriteReg(R8, 0x00000000)
TC3EC 000:441.424 - 0.003ms returns 0
TC3EC 000:441.427 JLINK_WriteReg(R9, 0x2000017C)
TC3EC 000:441.431 - 0.003ms returns 0
TC3EC 000:441.435 JLINK_WriteReg(R10, 0x00000000)
TC3EC 000:441.439 - 0.003ms returns 0
TC3EC 000:441.443 JLINK_WriteReg(R11, 0x00000000)
TC3EC 000:441.446 - 0.003ms returns 0
TC3EC 000:441.450 JLINK_WriteReg(R12, 0x00000000)
TC3EC 000:441.454 - 0.003ms returns 0
TC3EC 000:441.458 JLINK_WriteReg(R13 (SP), 0x20001000)
TC3EC 000:441.464 - 0.006ms returns 0
TC3EC 000:441.468 JLINK_WriteReg(R14, 0x20000001)
TC3EC 000:441.472 - 0.003ms returns 0
TC3EC 000:441.479 JLINK_WriteReg(R15 (PC), 0x20000020)
TC3EC 000:441.485 - 0.006ms returns 0
TC3EC 000:441.489 JLINK_WriteReg(XPSR, 0x01000000)
TC3EC 000:441.493 - 0.003ms returns 0
TC3EC 000:441.497 JLINK_WriteReg(MSP, 0x20001000)
TC3EC 000:441.500 - 0.003ms returns 0
TC3EC 000:441.504 JLINK_WriteReg(PSP, 0x20001000)
TC3EC 000:441.508 - 0.003ms returns 0
TC3EC 000:441.512 JLINK_WriteReg(CFBP, 0x00000000)
TC3EC 000:441.515 - 0.003ms returns 0
TC3EC 000:441.520 JLINK_SetBPEx(Addr = 0x20000000, Type = 0xFFFFFFF2)
TC3EC 000:441.525 - 0.004ms returns 0x00000004
TC3EC 000:441.529 JLINK_Go()
TC3EC 000:441.540   CPU_ReadMem(4 bytes @ 0xE0001000)
TC3EC 000:443.528 - 1.998ms 
TC3EC 000:443.539 JLINK_IsHalted()
TC3EC 000:443.756 - 0.217ms returns FALSE
TC3EC 000:443.763 JLINK_HasError()
TC3EC 000:445.483 JLINK_IsHalted()
TC3EC 000:445.709 - 0.226ms returns FALSE
TC3EC 000:445.717 JLINK_HasError()
TC3EC 000:447.452 JLINK_IsHalted()
TC3EC 000:447.680 - 0.228ms returns FALSE
TC3EC 000:447.691 JLINK_HasError()
TC3EC 000:449.479 JLINK_IsHalted()
TC3EC 000:449.752 - 0.272ms returns FALSE
TC3EC 000:449.762 JLINK_HasError()
TC3EC 000:451.465 JLINK_IsHalted()
TC3EC 000:451.705 - 0.239ms returns FALSE
TC3EC 000:451.714 JLINK_HasError()
TC3EC 000:453.461 JLINK_IsHalted()
TC3EC 000:453.706 - 0.244ms returns FALSE
TC3EC 000:453.715 JLINK_HasError()
TC3EC 000:455.460 JLINK_IsHalted()
TC3EC 000:455.738 - 0.278ms returns FALSE
TC3EC 000:455.748 JLINK_HasError()
TC3EC 000:458.450 JLINK_IsHalted()
TC3EC 000:458.712 - 0.261ms returns FALSE
TC3EC 000:458.721 JLINK_HasError()
TC3EC 000:460.441 JLINK_IsHalted()
TC3EC 000:460.651 - 0.210ms returns FALSE
TC3EC 000:460.660 JLINK_HasError()
TC3EC 000:462.408 JLINK_IsHalted()
TC3EC 000:462.667 - 0.258ms returns FALSE
TC3EC 000:462.673 JLINK_HasError()
TC3EC 000:464.406 JLINK_IsHalted()
TC3EC 000:464.659 - 0.252ms returns FALSE
TC3EC 000:464.665 JLINK_HasError()
TC3EC 000:466.420 JLINK_IsHalted()
TC3EC 000:466.686 - 0.266ms returns FALSE
TC3EC 000:466.698 JLINK_HasError()
TC3EC 000:473.387 JLINK_IsHalted()
TC3EC 000:473.637 - 0.250ms returns FALSE
TC3EC 000:473.645 JLINK_HasError()
TC3EC 000:475.400 JLINK_IsHalted()
TC3EC 000:475.744 - 0.345ms returns FALSE
TC3EC 000:475.771 JLINK_HasError()
TC3EC 000:477.398 JLINK_IsHalted()
TC3EC 000:477.738 - 0.340ms returns FALSE
TC3EC 000:477.757 JLINK_HasError()
TC3EC 000:479.421 JLINK_IsHalted()
TC3EC 000:479.854 - 0.433ms returns FALSE
TC3EC 000:479.880 JLINK_HasError()
TC3EC 000:481.490 JLINK_IsHalted()
TC3EC 000:481.941 - 0.454ms returns FALSE
TC3EC 000:481.981 JLINK_HasError()
TC3EC 000:483.407 JLINK_IsHalted()
TC3EC 000:483.791 - 0.383ms returns FALSE
TC3EC 000:483.817 JLINK_HasError()
TC3EC 000:485.388 JLINK_IsHalted()
TC3EC 000:485.748 - 0.361ms returns FALSE
TC3EC 000:485.774 JLINK_HasError()
TC3EC 000:487.372 JLINK_IsHalted()
TC3EC 000:487.722 - 0.351ms returns FALSE
TC3EC 000:487.737 JLINK_HasError()
TC3EC 000:489.398 JLINK_IsHalted()
TC3EC 000:489.793 - 0.397ms returns FALSE
TC3EC 000:489.828 JLINK_HasError()
TC3EC 000:491.359 JLINK_IsHalted()
TC3EC 000:491.765 - 0.402ms returns FALSE
TC3EC 000:491.896 JLINK_HasError()
TC3EC 000:493.375 JLINK_IsHalted()
TC3EC 000:493.783 - 0.408ms returns FALSE
TC3EC 000:493.814 JLINK_HasError()
TC3EC 000:495.338 JLINK_IsHalted()
TC3EC 000:495.647 - 0.309ms returns FALSE
TC3EC 000:495.662 JLINK_HasError()
TC3EC 000:497.333 JLINK_IsHalted()
TC3EC 000:497.807 - 0.473ms returns FALSE
TC3EC 000:498.022 JLINK_HasError()
TC3EC 000:499.356 JLINK_IsHalted()
TC3EC 000:499.725 - 0.370ms returns FALSE
TC3EC 000:499.755 JLINK_HasError()
TC3EC 000:501.419 JLINK_IsHalted()
TC3EC 000:501.744 - 0.325ms returns FALSE
TC3EC 000:501.768 JLINK_HasError()
TC3EC 000:503.332 JLINK_IsHalted()
TC3EC 000:503.709 - 0.377ms returns FALSE
TC3EC 000:503.743 JLINK_HasError()
TC3EC 000:505.339 JLINK_IsHalted()
TC3EC 000:505.660 - 0.320ms returns FALSE
TC3EC 000:505.691 JLINK_HasError()
TC3EC 000:507.421 JLINK_IsHalted()
TC3EC 000:508.022 - 0.600ms returns FALSE
TC3EC 000:508.122 JLINK_HasError()
TC3EC 000:509.328 JLINK_IsHalted()
TC3EC 000:509.651 - 0.322ms returns FALSE
TC3EC 000:509.671 JLINK_HasError()
TC3EC 000:511.291 JLINK_IsHalted()
TC3EC 000:511.604 - 0.312ms returns FALSE
TC3EC 000:511.629 JLINK_HasError()
TC3EC 000:516.286 JLINK_IsHalted()
TC3EC 000:516.693 - 0.406ms returns FALSE
TC3EC 000:516.717 JLINK_HasError()
TC3EC 000:518.275 JLINK_IsHalted()
TC3EC 000:518.546 - 0.270ms returns FALSE
TC3EC 000:518.557 JLINK_HasError()
TC3EC 000:520.284 JLINK_IsHalted()
TC3EC 000:520.645 - 0.362ms returns FALSE
TC3EC 000:520.663 JLINK_HasError()
TC3EC 000:522.284 JLINK_IsHalted()
TC3EC 000:522.675 - 0.390ms returns FALSE
TC3EC 000:522.704 JLINK_HasError()
TC3EC 000:524.248 JLINK_IsHalted()
TC3EC 000:524.497 - 0.248ms returns FALSE
TC3EC 000:524.511 JLINK_HasError()
TC3EC 000:526.244 JLINK_IsHalted()
TC3EC 000:526.515 - 0.269ms returns FALSE
TC3EC 000:526.523 JLINK_HasError()
TC3EC 000:527.809 JLINK_IsHalted()
TC3EC 000:527.997 - 0.187ms returns FALSE
TC3EC 000:528.007 JLINK_HasError()
TC3EC 000:529.804 JLINK_IsHalted()
TC3EC 000:529.988 - 0.184ms returns FALSE
TC3EC 000:529.997 JLINK_HasError()
TC3EC 000:531.815 JLINK_IsHalted()
TC3EC 000:532.087 - 0.271ms returns FALSE
TC3EC 000:532.102 JLINK_HasError()
TC3EC 000:533.798 JLINK_IsHalted()
TC3EC 000:534.011 - 0.212ms returns FALSE
TC3EC 000:534.024 JLINK_HasError()
TC3EC 000:535.790 JLINK_IsHalted()
TC3EC 000:535.994 - 0.204ms returns FALSE
TC3EC 000:536.001 JLINK_HasError()
TC3EC 000:537.782 JLINK_IsHalted()
TC3EC 000:537.986 - 0.203ms returns FALSE
TC3EC 000:537.992 JLINK_HasError()
TC3EC 000:539.778 JLINK_IsHalted()
TC3EC 000:539.988 - 0.209ms returns FALSE
TC3EC 000:539.995 JLINK_HasError()
TC3EC 000:541.772 JLINK_IsHalted()
TC3EC 000:541.986 - 0.213ms returns FALSE
TC3EC 000:541.991 JLINK_HasError()
TC3EC 000:543.767 JLINK_IsHalted()
TC3EC 000:543.949 - 0.182ms returns FALSE
TC3EC 000:543.955 JLINK_HasError()
TC3EC 000:545.761 JLINK_IsHalted()
TC3EC 000:545.991 - 0.229ms returns FALSE
TC3EC 000:545.999 JLINK_HasError()
TC3EC 000:547.764 JLINK_IsHalted()
TC3EC 000:547.996 - 0.231ms returns FALSE
TC3EC 000:548.006 JLINK_HasError()
TC3EC 000:549.752 JLINK_IsHalted()
TC3EC 000:549.972 - 0.219ms returns FALSE
TC3EC 000:549.981 JLINK_HasError()
TC3EC 000:551.746 JLINK_IsHalted()
TC3EC 000:551.947 - 0.200ms returns FALSE
TC3EC 000:551.953 JLINK_HasError()
TC3EC 000:553.746 JLINK_IsHalted()
TC3EC 000:553.957 - 0.210ms returns FALSE
TC3EC 000:553.963 JLINK_HasError()
TC3EC 000:555.734 JLINK_IsHalted()
TC3EC 000:555.932 - 0.197ms returns FALSE
TC3EC 000:555.937 JLINK_HasError()
TC3EC 000:557.730 JLINK_IsHalted()
TC3EC 000:559.556   CPU_ReadMem(2 bytes @ 0x20000000)
TC3EC 000:559.802 - 2.072ms returns TRUE
TC3EC 000:559.809 JLINK_ReadReg(R15 (PC))
TC3EC 000:559.814 - 0.005ms returns 0x20000000
TC3EC 000:559.818 JLINK_ClrBPEx(BPHandle = 0x00000004)
TC3EC 000:559.822 - 0.004ms returns 0x00
TC3EC 000:559.827 JLINK_ReadReg(R0)
TC3EC 000:559.830 - 0.003ms returns 0x00000000
TC3EC 000:560.253 JLINK_HasError()
TC3EC 000:560.261 JLINK_WriteReg(R0, 0x00000001)
TC3EC 000:560.266 - 0.004ms returns 0
TC3EC 000:560.270 JLINK_WriteReg(R1, 0x00020000)
TC3EC 000:560.274 - 0.003ms returns 0
TC3EC 000:560.278 JLINK_WriteReg(R2, 0x000000FF)
TC3EC 000:560.282 - 0.003ms returns 0
TC3EC 000:560.285 JLINK_WriteReg(R3, 0x00000000)
TC3EC 000:560.289 - 0.003ms returns 0
TC3EC 000:560.293 JLINK_WriteReg(R4, 0x00000000)
TC3EC 000:560.296 - 0.003ms returns 0
TC3EC 000:560.301 JLINK_WriteReg(R5, 0x00000000)
TC3EC 000:560.304 - 0.003ms returns 0
TC3EC 000:560.308 JLINK_WriteReg(R6, 0x00000000)
TC3EC 000:560.312 - 0.003ms returns 0
TC3EC 000:560.316 JLINK_WriteReg(R7, 0x00000000)
TC3EC 000:560.319 - 0.003ms returns 0
TC3EC 000:560.323 JLINK_WriteReg(R8, 0x00000000)
TC3EC 000:560.327 - 0.003ms returns 0
TC3EC 000:560.331 JLINK_WriteReg(R9, 0x2000017C)
TC3EC 000:560.334 - 0.003ms returns 0
TC3EC 000:560.338 JLINK_WriteReg(R10, 0x00000000)
TC3EC 000:560.342 - 0.003ms returns 0
TC3EC 000:560.387 JLINK_WriteReg(R11, 0x00000000)
TC3EC 000:560.391 - 0.004ms returns 0
TC3EC 000:560.395 JLINK_WriteReg(R12, 0x00000000)
TC3EC 000:560.399 - 0.003ms returns 0
TC3EC 000:560.403 JLINK_WriteReg(R13 (SP), 0x20001000)
TC3EC 000:560.407 - 0.004ms returns 0
TC3EC 000:560.412 JLINK_WriteReg(R14, 0x20000001)
TC3EC 000:560.415 - 0.003ms returns 0
TC3EC 000:560.419 JLINK_WriteReg(R15 (PC), 0x20000082)
TC3EC 000:560.423 - 0.003ms returns 0
TC3EC 000:560.427 JLINK_WriteReg(XPSR, 0x01000000)
TC3EC 000:560.430 - 0.003ms returns 0
TC3EC 000:560.434 JLINK_WriteReg(MSP, 0x20001000)
TC3EC 000:560.438 - 0.003ms returns 0
TC3EC 000:560.442 JLINK_WriteReg(PSP, 0x20001000)
TC3EC 000:560.445 - 0.003ms returns 0
TC3EC 000:560.449 JLINK_WriteReg(CFBP, 0x00000000)
TC3EC 000:560.453 - 0.003ms returns 0
TC3EC 000:560.457 JLINK_SetBPEx(Addr = 0x20000000, Type = 0xFFFFFFF2)
TC3EC 000:560.462 - 0.004ms returns 0x00000005
TC3EC 000:560.466 JLINK_Go()
TC3EC 000:560.476   CPU_ReadMem(4 bytes @ 0xE0001000)
TC3EC 000:562.484 - 2.017ms 
TC3EC 000:562.491 JLINK_IsHalted()
TC3EC 000:564.289   CPU_ReadMem(2 bytes @ 0x20000000)
TC3EC 000:564.585 - 2.093ms returns TRUE
TC3EC 000:564.595 JLINK_ReadReg(R15 (PC))
TC3EC 000:564.602 - 0.006ms returns 0x20000000
TC3EC 000:564.606 JLINK_ClrBPEx(BPHandle = 0x00000005)
TC3EC 000:564.610 - 0.004ms returns 0x00
TC3EC 000:564.615 JLINK_ReadReg(R0)
TC3EC 000:564.619 - 0.004ms returns 0x00000000
TC3EC 000:622.365 JLINK_WriteMem(0x20000000, 0x180 Bytes, ...)
TC3EC 000:622.376   Data:  00 BE 0A E0 0D 78 2D 06 68 40 08 24 40 00 00 D3 ...
TC3EC 000:622.393   CPU_WriteMem(384 bytes @ 0x20000000)
TC3EC 000:623.977 - 1.612ms returns 0x180
TC3EC 000:623.996 JLINK_HasError()
TC3EC 000:624.002 JLINK_WriteReg(R0, 0x08000000)
TC3EC 000:624.008 - 0.005ms returns 0
TC3EC 000:624.012 JLINK_WriteReg(R1, 0x007A1200)
TC3EC 000:624.016 - 0.003ms returns 0
TC3EC 000:624.020 JLINK_WriteReg(R2, 0x00000002)
TC3EC 000:624.023 - 0.003ms returns 0
TC3EC 000:624.027 JLINK_WriteReg(R3, 0x00000000)
TC3EC 000:624.031 - 0.003ms returns 0
TC3EC 000:624.035 JLINK_WriteReg(R4, 0x00000000)
TC3EC 000:624.038 - 0.003ms returns 0
TC3EC 000:624.042 JLINK_WriteReg(R5, 0x00000000)
TC3EC 000:624.046 - 0.003ms returns 0
TC3EC 000:624.050 JLINK_WriteReg(R6, 0x00000000)
TC3EC 000:624.053 - 0.003ms returns 0
TC3EC 000:624.057 JLINK_WriteReg(R7, 0x00000000)
TC3EC 000:624.061 - 0.003ms returns 0
TC3EC 000:624.065 JLINK_WriteReg(R8, 0x00000000)
TC3EC 000:624.068 - 0.003ms returns 0
TC3EC 000:624.072 JLINK_WriteReg(R9, 0x2000017C)
TC3EC 000:624.076 - 0.003ms returns 0
TC3EC 000:624.080 JLINK_WriteReg(R10, 0x00000000)
TC3EC 000:624.083 - 0.003ms returns 0
TC3EC 000:624.087 JLINK_WriteReg(R11, 0x00000000)
TC3EC 000:624.091 - 0.003ms returns 0
TC3EC 000:624.095 JLINK_WriteReg(R12, 0x00000000)
TC3EC 000:624.098 - 0.003ms returns 0
TC3EC 000:624.102 JLINK_WriteReg(R13 (SP), 0x20001000)
TC3EC 000:624.106 - 0.004ms returns 0
TC3EC 000:624.110 JLINK_WriteReg(R14, 0x20000001)
TC3EC 000:624.114 - 0.003ms returns 0
TC3EC 000:624.118 JLINK_WriteReg(R15 (PC), 0x20000054)
TC3EC 000:624.122 - 0.003ms returns 0
TC3EC 000:624.126 JLINK_WriteReg(XPSR, 0x01000000)
TC3EC 000:624.129 - 0.003ms returns 0
TC3EC 000:624.133 JLINK_WriteReg(MSP, 0x20001000)
TC3EC 000:624.137 - 0.003ms returns 0
TC3EC 000:624.141 JLINK_WriteReg(PSP, 0x20001000)
TC3EC 000:624.144 - 0.003ms returns 0
TC3EC 000:624.148 JLINK_WriteReg(CFBP, 0x00000000)
TC3EC 000:624.152 - 0.003ms returns 0
TC3EC 000:624.156 JLINK_SetBPEx(Addr = 0x20000000, Type = 0xFFFFFFF2)
TC3EC 000:624.164   CPU_ReadMem(2 bytes @ 0x20000000)
TC3EC 000:624.405 - 0.249ms returns 0x00000006
TC3EC 000:624.411 JLINK_Go()
TC3EC 000:624.417   CPU_WriteMem(2 bytes @ 0x20000000)
TC3EC 000:624.672   CPU_ReadMem(4 bytes @ 0xE0001000)
TC3EC 000:626.634 - 2.222ms 
TC3EC 000:626.640 JLINK_IsHalted()
TC3EC 000:628.395   CPU_ReadMem(2 bytes @ 0x20000000)
TC3EC 000:628.668 - 2.027ms returns TRUE
TC3EC 000:628.678 JLINK_ReadReg(R15 (PC))
TC3EC 000:628.683 - 0.005ms returns 0x20000000
TC3EC 000:628.693 JLINK_ClrBPEx(BPHandle = 0x00000006)
TC3EC 000:628.697 - 0.004ms returns 0x00
TC3EC 000:628.701 JLINK_ReadReg(R0)
TC3EC 000:628.704 - 0.003ms returns 0x00000000
TC3EC 000:628.899 JLINK_WriteMem(0x20000180, 0x280 Bytes, ...)
TC3EC 000:628.905   Data:  C8 B6 01 20 61 C2 00 08 3D 0A 01 08 A5 F9 00 08 ...
TC3EC 000:628.915   CPU_WriteMem(640 bytes @ 0x20000180)
TC3EC 000:631.291 - 2.391ms returns 0x280
TC3EC 000:631.304 JLINK_WriteMem(0x20000400, 0x180 Bytes, ...)
TC3EC 000:631.308   Data:  89 C1 00 08 2D E9 F0 5F 05 46 00 20 92 46 9B 46 ...
TC3EC 000:631.322   CPU_WriteMem(384 bytes @ 0x20000400)
TC3EC 000:633.062 - 1.757ms returns 0x180
TC3EC 000:633.088 JLINK_HasError()
TC3EC 000:633.107 JLINK_WriteReg(R0, 0x0800C000)
TC3EC 000:633.115 - 0.007ms returns 0
TC3EC 000:633.119 JLINK_WriteReg(R1, 0x00000400)
TC3EC 000:633.122 - 0.003ms returns 0
TC3EC 000:633.126 JLINK_WriteReg(R2, 0x20000180)
TC3EC 000:633.130 - 0.003ms returns 0
TC3EC 000:633.134 JLINK_WriteReg(R3, 0x00000000)
TC3EC 000:633.138 - 0.003ms returns 0
TC3EC 000:633.141 JLINK_WriteReg(R4, 0x00000000)
TC3EC 000:633.145 - 0.003ms returns 0
TC3EC 000:633.149 JLINK_WriteReg(R5, 0x00000000)
TC3EC 000:633.153 - 0.003ms returns 0
TC3EC 000:633.157 JLINK_WriteReg(R6, 0x00000000)
TC3EC 000:633.160 - 0.003ms returns 0
TC3EC 000:633.164 JLINK_WriteReg(R7, 0x00000000)
TC3EC 000:633.167 - 0.003ms returns 0
TC3EC 000:633.171 JLINK_WriteReg(R8, 0x00000000)
TC3EC 000:633.175 - 0.003ms returns 0
TC3EC 000:633.179 JLINK_WriteReg(R9, 0x2000017C)
TC3EC 000:633.182 - 0.003ms returns 0
TC3EC 000:633.186 JLINK_WriteReg(R10, 0x00000000)
TC3EC 000:633.190 - 0.003ms returns 0
TC3EC 000:633.194 JLINK_WriteReg(R11, 0x00000000)
TC3EC 000:633.197 - 0.003ms returns 0
TC3EC 000:633.201 JLINK_WriteReg(R12, 0x00000000)
TC3EC 000:633.205 - 0.003ms returns 0
TC3EC 000:633.209 JLINK_WriteReg(R13 (SP), 0x20001000)
TC3EC 000:633.213 - 0.004ms returns 0
TC3EC 000:633.217 JLINK_WriteReg(R14, 0x20000001)
TC3EC 000:633.220 - 0.003ms returns 0
TC3EC 000:633.224 JLINK_WriteReg(R15 (PC), 0x20000108)
TC3EC 000:633.228 - 0.003ms returns 0
TC3EC 000:633.232 JLINK_WriteReg(XPSR, 0x01000000)
TC3EC 000:633.235 - 0.003ms returns 0
TC3EC 000:633.239 JLINK_WriteReg(MSP, 0x20001000)
TC3EC 000:633.243 - 0.003ms returns 0
TC3EC 000:633.247 JLINK_WriteReg(PSP, 0x20001000)
TC3EC 000:633.250 - 0.003ms returns 0
TC3EC 000:633.254 JLINK_WriteReg(CFBP, 0x00000000)
TC3EC 000:633.258 - 0.003ms returns 0
TC3EC 000:633.262 JLINK_SetBPEx(Addr = 0x20000000, Type = 0xFFFFFFF2)
TC3EC 000:633.267 - 0.005ms returns 0x00000007
TC3EC 000:633.271 JLINK_Go()
TC3EC 000:633.282   CPU_ReadMem(4 bytes @ 0xE0001000)
TC3EC 000:635.465 - 2.193ms 
TC3EC 000:635.484 JLINK_IsHalted()
TC3EC 000:635.790 - 0.305ms returns FALSE
TC3EC 000:635.804 JLINK_HasError()
TC3EC 000:641.537 JLINK_IsHalted()
TC3EC 000:643.620   CPU_ReadMem(2 bytes @ 0x20000000)
TC3EC 000:643.920 - 2.382ms returns TRUE
TC3EC 000:643.930 JLINK_ReadReg(R15 (PC))
TC3EC 000:643.936 - 0.005ms returns 0x20000000
TC3EC 000:643.940 JLINK_ClrBPEx(BPHandle = 0x00000007)
TC3EC 000:643.944 - 0.004ms returns 0x00
TC3EC 000:643.949 JLINK_ReadReg(R0)
TC3EC 000:643.952 - 0.003ms returns 0x00000000
TC3EC 000:644.315 JLINK_WriteMem(0x20000180, 0x280 Bytes, ...)
TC3EC 000:644.322   Data:  3D F9 0D B0 5D F8 14 FB 99 C6 00 08 B7 C6 00 08 ...
TC3EC 000:644.332   CPU_WriteMem(640 bytes @ 0x20000180)
TC3EC 000:646.785 - 2.469ms returns 0x280
TC3EC 000:646.795 JLINK_WriteMem(0x20000400, 0x180 Bytes, ...)
TC3EC 000:646.799   Data:  51 61 04 49 11 62 00 21 11 61 11 46 00 F0 50 BA ...
TC3EC 000:646.808   CPU_WriteMem(384 bytes @ 0x20000400)
TC3EC 000:648.416 - 1.620ms returns 0x180
TC3EC 000:648.433 JLINK_HasError()
TC3EC 000:648.455 JLINK_WriteReg(R0, 0x0800C400)
TC3EC 000:648.461 - 0.006ms returns 0
TC3EC 000:648.467 JLINK_WriteReg(R1, 0x00000400)
TC3EC 000:648.470 - 0.004ms returns 0
TC3EC 000:648.475 JLINK_WriteReg(R2, 0x20000180)
TC3EC 000:648.479 - 0.003ms returns 0
TC3EC 000:648.491 JLINK_WriteReg(R3, 0x00000000)
TC3EC 000:648.498 - 0.006ms returns 0
TC3EC 000:648.503 JLINK_WriteReg(R4, 0x00000000)
TC3EC 000:648.507 - 0.003ms returns 0
TC3EC 000:648.511 JLINK_WriteReg(R5, 0x00000000)
TC3EC 000:648.515 - 0.003ms returns 0
TC3EC 000:648.592 JLINK_WriteReg(R6, 0x00000000)
TC3EC 000:648.602 - 0.010ms returns 0
TC3EC 000:648.620 JLINK_WriteReg(R7, 0x00000000)
TC3EC 000:648.623 - 0.003ms returns 0
TC3EC 000:648.627 JLINK_WriteReg(R8, 0x00000000)
TC3EC 000:648.631 - 0.003ms returns 0
TC3EC 000:648.635 JLINK_WriteReg(R9, 0x2000017C)
TC3EC 000:648.638 - 0.003ms returns 0
TC3EC 000:648.642 JLINK_WriteReg(R10, 0x00000000)
TC3EC 000:648.646 - 0.003ms returns 0
TC3EC 000:648.650 JLINK_WriteReg(R11, 0x00000000)
TC3EC 000:648.653 - 0.003ms returns 0
TC3EC 000:648.657 JLINK_WriteReg(R12, 0x00000000)
TC3EC 000:648.661 - 0.003ms returns 0
TC3EC 000:648.665 JLINK_WriteReg(R13 (SP), 0x20001000)
TC3EC 000:648.669 - 0.004ms returns 0
TC3EC 000:648.673 JLINK_WriteReg(R14, 0x20000001)
TC3EC 000:648.692 - 0.019ms returns 0
TC3EC 000:648.696 JLINK_WriteReg(R15 (PC), 0x20000108)
TC3EC 000:648.700 - 0.003ms returns 0
TC3EC 000:648.704 JLINK_WriteReg(XPSR, 0x01000000)
TC3EC 000:648.707 - 0.003ms returns 0
TC3EC 000:648.711 JLINK_WriteReg(MSP, 0x20001000)
TC3EC 000:648.715 - 0.003ms returns 0
TC3EC 000:648.719 JLINK_WriteReg(PSP, 0x20001000)
TC3EC 000:648.723 - 0.003ms returns 0
TC3EC 000:648.727 JLINK_WriteReg(CFBP, 0x00000000)
TC3EC 000:648.730 - 0.003ms returns 0
TC3EC 000:648.735 JLINK_SetBPEx(Addr = 0x20000000, Type = 0xFFFFFFF2)
TC3EC 000:648.741 - 0.006ms returns 0x00000008
TC3EC 000:648.745 JLINK_Go()
TC3EC 000:648.757   CPU_ReadMem(4 bytes @ 0xE0001000)
TC3EC 000:651.046 - 2.298ms 
TC3EC 000:651.092 JLINK_IsHalted()
TC3EC 000:651.404 - 0.310ms returns FALSE
TC3EC 000:651.434 JLINK_HasError()
TC3EC 000:652.493 JLINK_IsHalted()
TC3EC 000:652.805 - 0.311ms returns FALSE
TC3EC 000:652.819 JLINK_HasError()
TC3EC 000:654.473 JLINK_IsHalted()
TC3EC 000:654.714 - 0.240ms returns FALSE
TC3EC 000:654.724 JLINK_HasError()
TC3EC 000:656.489 JLINK_IsHalted()
TC3EC 000:658.341   CPU_ReadMem(2 bytes @ 0x20000000)
TC3EC 000:658.577 - 2.087ms returns TRUE
TC3EC 000:658.585 JLINK_ReadReg(R15 (PC))
TC3EC 000:658.605 - 0.006ms returns 0x20000000
TC3EC 000:658.609 JLINK_ClrBPEx(BPHandle = 0x00000008)
TC3EC 000:658.613 - 0.004ms returns 0x00
TC3EC 000:658.617 JLINK_ReadReg(R0)
TC3EC 000:658.621 - 0.003ms returns 0x00000000
TC3EC 000:659.009 JLINK_WriteMem(0x20000180, 0x280 Bytes, ...)
TC3EC 000:659.016   Data:  E7 73 1A 43 40 D0 00 9A 62 B3 01 9A 01 2A 4F EA ...
TC3EC 000:659.026   CPU_WriteMem(640 bytes @ 0x20000180)
TC3EC 000:661.390 - 2.380ms returns 0x280
TC3EC 000:661.400 JLINK_WriteMem(0x20000400, 0x180 Bytes, ...)
TC3EC 000:661.418   Data:  F0 4D 00 F0 ED B9 C1 F3 0A 52 C1 F3 13 01 40 F2 ...
TC3EC 000:661.428   CPU_WriteMem(384 bytes @ 0x20000400)
TC3EC 000:662.993 - 1.592ms returns 0x180
TC3EC 000:663.001 JLINK_HasError()
TC3EC 000:663.006 JLINK_WriteReg(R0, 0x0800C800)
TC3EC 000:663.010 - 0.004ms returns 0
TC3EC 000:663.015 JLINK_WriteReg(R1, 0x00000400)
TC3EC 000:663.018 - 0.003ms returns 0
TC3EC 000:663.022 JLINK_WriteReg(R2, 0x20000180)
TC3EC 000:663.026 - 0.003ms returns 0
TC3EC 000:663.030 JLINK_WriteReg(R3, 0x00000000)
TC3EC 000:663.034 - 0.003ms returns 0
TC3EC 000:663.038 JLINK_WriteReg(R4, 0x00000000)
TC3EC 000:663.041 - 0.003ms returns 0
TC3EC 000:663.045 JLINK_WriteReg(R5, 0x00000000)
TC3EC 000:663.048 - 0.003ms returns 0
TC3EC 000:663.052 JLINK_WriteReg(R6, 0x00000000)
TC3EC 000:663.056 - 0.003ms returns 0
TC3EC 000:663.060 JLINK_WriteReg(R7, 0x00000000)
TC3EC 000:663.064 - 0.003ms returns 0
TC3EC 000:663.068 JLINK_WriteReg(R8, 0x00000000)
TC3EC 000:663.071 - 0.003ms returns 0
TC3EC 000:663.075 JLINK_WriteReg(R9, 0x2000017C)
TC3EC 000:663.079 - 0.003ms returns 0
TC3EC 000:663.083 JLINK_WriteReg(R10, 0x00000000)
TC3EC 000:663.086 - 0.003ms returns 0
TC3EC 000:663.090 JLINK_WriteReg(R11, 0x00000000)
TC3EC 000:663.094 - 0.003ms returns 0
TC3EC 000:663.103 JLINK_WriteReg(R12, 0x00000000)
TC3EC 000:663.107 - 0.003ms returns 0
TC3EC 000:663.111 JLINK_WriteReg(R13 (SP), 0x20001000)
TC3EC 000:663.115 - 0.004ms returns 0
TC3EC 000:663.119 JLINK_WriteReg(R14, 0x20000001)
TC3EC 000:663.123 - 0.003ms returns 0
TC3EC 000:663.127 JLINK_WriteReg(R15 (PC), 0x20000108)
TC3EC 000:663.130 - 0.003ms returns 0
TC3EC 000:663.134 JLINK_WriteReg(XPSR, 0x01000000)
TC3EC 000:663.138 - 0.003ms returns 0
TC3EC 000:663.142 JLINK_WriteReg(MSP, 0x20001000)
TC3EC 000:663.146 - 0.003ms returns 0
TC3EC 000:663.150 JLINK_WriteReg(PSP, 0x20001000)
TC3EC 000:663.153 - 0.003ms returns 0
TC3EC 000:663.157 JLINK_WriteReg(CFBP, 0x00000000)
TC3EC 000:663.161 - 0.003ms returns 0
TC3EC 000:663.165 JLINK_SetBPEx(Addr = 0x20000000, Type = 0xFFFFFFF2)
TC3EC 000:663.170 - 0.004ms returns 0x00000009
TC3EC 000:663.174 JLINK_Go()
TC3EC 000:663.183   CPU_ReadMem(4 bytes @ 0xE0001000)
TC3EC 000:665.161 - 1.985ms 
TC3EC 000:665.186 JLINK_IsHalted()
TC3EC 000:665.495 - 0.309ms returns FALSE
TC3EC 000:665.511 JLINK_HasError()
TC3EC 000:667.462 JLINK_IsHalted()
TC3EC 000:667.901 - 0.438ms returns FALSE
TC3EC 000:667.911 JLINK_HasError()
TC3EC 000:669.433 JLINK_IsHalted()
TC3EC 000:671.198   CPU_ReadMem(2 bytes @ 0x20000000)
TC3EC 000:671.413 - 1.979ms returns TRUE
TC3EC 000:671.422 JLINK_ReadReg(R15 (PC))
TC3EC 000:671.428 - 0.007ms returns 0x20000000
TC3EC 000:671.432 JLINK_ClrBPEx(BPHandle = 0x00000009)
TC3EC 000:671.436 - 0.004ms returns 0x00
TC3EC 000:671.440 JLINK_ReadReg(R0)
TC3EC 000:671.444 - 0.003ms returns 0x00000000
TC3EC 000:671.836 JLINK_WriteMem(0x20000180, 0x280 Bytes, ...)
TC3EC 000:671.843   Data:  00 47 6C 28 0A D0 4C 28 14 D0 68 28 15 D0 6A 28 ...
TC3EC 000:671.854   CPU_WriteMem(640 bytes @ 0x20000180)
TC3EC 000:674.125 - 2.288ms returns 0x280
TC3EC 000:674.133 JLINK_WriteMem(0x20000400, 0x180 Bytes, ...)
TC3EC 000:674.137   Data:  F0 4D 92 46 9B 46 11 B1 B1 FA 81 F2 02 E0 B0 FA ...
TC3EC 000:674.145   CPU_WriteMem(384 bytes @ 0x20000400)
TC3EC 000:675.678 - 1.544ms returns 0x180
TC3EC 000:675.686 JLINK_HasError()
TC3EC 000:675.715 JLINK_WriteReg(R0, 0x0800CC00)
TC3EC 000:675.721 - 0.005ms returns 0
TC3EC 000:675.725 JLINK_WriteReg(R1, 0x00000400)
TC3EC 000:675.729 - 0.003ms returns 0
TC3EC 000:675.733 JLINK_WriteReg(R2, 0x20000180)
TC3EC 000:675.736 - 0.003ms returns 0
TC3EC 000:675.740 JLINK_WriteReg(R3, 0x00000000)
TC3EC 000:675.744 - 0.003ms returns 0
TC3EC 000:675.748 JLINK_WriteReg(R4, 0x00000000)
TC3EC 000:675.751 - 0.003ms returns 0
TC3EC 000:675.755 JLINK_WriteReg(R5, 0x00000000)
TC3EC 000:675.759 - 0.003ms returns 0
TC3EC 000:675.763 JLINK_WriteReg(R6, 0x00000000)
TC3EC 000:675.766 - 0.003ms returns 0
TC3EC 000:675.770 JLINK_WriteReg(R7, 0x00000000)
TC3EC 000:675.774 - 0.003ms returns 0
TC3EC 000:675.778 JLINK_WriteReg(R8, 0x00000000)
TC3EC 000:675.781 - 0.003ms returns 0
TC3EC 000:675.785 JLINK_WriteReg(R9, 0x2000017C)
TC3EC 000:675.789 - 0.003ms returns 0
TC3EC 000:675.793 JLINK_WriteReg(R10, 0x00000000)
TC3EC 000:675.796 - 0.003ms returns 0
TC3EC 000:675.800 JLINK_WriteReg(R11, 0x00000000)
TC3EC 000:675.804 - 0.003ms returns 0
TC3EC 000:675.808 JLINK_WriteReg(R12, 0x00000000)
TC3EC 000:675.811 - 0.003ms returns 0
TC3EC 000:675.816 JLINK_WriteReg(R13 (SP), 0x20001000)
TC3EC 000:675.819 - 0.004ms returns 0
TC3EC 000:675.823 JLINK_WriteReg(R14, 0x20000001)
TC3EC 000:675.827 - 0.003ms returns 0
TC3EC 000:675.831 JLINK_WriteReg(R15 (PC), 0x20000108)
TC3EC 000:675.835 - 0.003ms returns 0
TC3EC 000:675.839 JLINK_WriteReg(XPSR, 0x01000000)
TC3EC 000:675.842 - 0.003ms returns 0
TC3EC 000:675.846 JLINK_WriteReg(MSP, 0x20001000)
TC3EC 000:675.850 - 0.003ms returns 0
TC3EC 000:675.854 JLINK_WriteReg(PSP, 0x20001000)
TC3EC 000:675.857 - 0.003ms returns 0
TC3EC 000:675.861 JLINK_WriteReg(CFBP, 0x00000000)
TC3EC 000:675.865 - 0.003ms returns 0
TC3EC 000:675.869 JLINK_SetBPEx(Addr = 0x20000000, Type = 0xFFFFFFF2)
TC3EC 000:675.874 - 0.004ms returns 0x0000000A
TC3EC 000:675.878 JLINK_Go()
TC3EC 000:675.892   CPU_ReadMem(4 bytes @ 0xE0001000)
TC3EC 000:677.882 - 2.003ms 
TC3EC 000:677.891 JLINK_IsHalted()
TC3EC 000:678.144 - 0.252ms returns FALSE
TC3EC 000:678.153 JLINK_HasError()
TC3EC 000:679.456 JLINK_IsHalted()
TC3EC 000:679.732 - 0.276ms returns FALSE
TC3EC 000:679.741 JLINK_HasError()
TC3EC 000:681.415 JLINK_IsHalted()
TC3EC 000:681.754 - 0.337ms returns FALSE
TC3EC 000:681.764 JLINK_HasError()
TC3EC 000:684.523 JLINK_IsHalted()
TC3EC 000:686.530   CPU_ReadMem(2 bytes @ 0x20000000)
TC3EC 000:686.770 - 2.251ms returns TRUE
TC3EC 000:686.780 JLINK_ReadReg(R15 (PC))
TC3EC 000:686.786 - 0.005ms returns 0x20000000
TC3EC 000:686.791 JLINK_ClrBPEx(BPHandle = 0x0000000A)
TC3EC 000:686.795 - 0.004ms returns 0x00
TC3EC 000:686.800 JLINK_ReadReg(R0)
TC3EC 000:686.803 - 0.004ms returns 0x00000000
TC3EC 000:687.222 JLINK_WriteMem(0x20000180, 0x280 Bytes, ...)
TC3EC 000:687.229   Data:  03 68 9A 60 0B E0 02 68 92 68 22 F0 70 62 03 68 ...
TC3EC 000:687.240   CPU_WriteMem(640 bytes @ 0x20000180)
TC3EC 000:689.640 - 2.417ms returns 0x280
TC3EC 000:689.649 JLINK_WriteMem(0x20000400, 0x180 Bytes, ...)
TC3EC 000:689.653   Data:  44 49 08 70 02 E0 07 F0 6B FB 05 46 7F E0 05 2C ...
TC3EC 000:689.661   CPU_WriteMem(384 bytes @ 0x20000400)
TC3EC 000:691.278 - 1.628ms returns 0x180
TC3EC 000:691.287 JLINK_HasError()
TC3EC 000:691.292 JLINK_WriteReg(R0, 0x0800D000)
TC3EC 000:691.297 - 0.005ms returns 0
TC3EC 000:691.301 JLINK_WriteReg(R1, 0x00000400)
TC3EC 000:691.305 - 0.003ms returns 0
TC3EC 000:691.309 JLINK_WriteReg(R2, 0x20000180)
TC3EC 000:691.312 - 0.003ms returns 0
TC3EC 000:691.316 JLINK_WriteReg(R3, 0x00000000)
TC3EC 000:691.320 - 0.003ms returns 0
TC3EC 000:691.324 JLINK_WriteReg(R4, 0x00000000)
TC3EC 000:691.327 - 0.003ms returns 0
TC3EC 000:691.331 JLINK_WriteReg(R5, 0x00000000)
TC3EC 000:691.335 - 0.003ms returns 0
